VCD info: dumpfile soc_top_tb.vcd opened for output.
[TB] Applying System Reset Initialization...
Time=0ns | PC=0x00000000 | ALU_Result=0x00000000 | APB_Sel=0 | RAM_Sel=1
[TB] System Reset Released.
[TEST STAGE 1] Monitoring Instruction Fetch and Register File Writes...
Time=110ns | PC=0x00000004 | ALU_Result=0x00000000 | APB_Sel=0 | RAM_Sel=1
Time=130ns | PC=0x00000008 | ALU_Result=0x00000000 | APB_Sel=0 | RAM_Sel=1
Time=150ns | PC=0x0000000c | ALU_Result=0x00003005 | APB_Sel=0 | RAM_Sel=1
Time=170ns | PC=0x00000010 | ALU_Result=0x000000ff | APB_Sel=1 | RAM_Sel=0
Time=190ns | PC=0x00000014 | ALU_Result=0x00003000 | APB_Sel=0 | RAM_Sel=1
Time=210ns | PC=0x00000018 | ALU_Result=0x00003000 | APB_Sel=1 | RAM_Sel=0
Time=230ns | PC=0x0000001c | ALU_Result=0x00000000 | APB_Sel=1 | RAM_Sel=0
Time=250ns | PC=0x00000020 | ALU_Result=0x00000000 | APB_Sel=0 | RAM_Sel=1
Time=270ns | PC=0x00000024 | ALU_Result=0x00000000 | APB_Sel=0 | RAM_Sel=1
Time=290ns | PC=0x00000028 | ALU_Result=0x00000000 | APB_Sel=0 | RAM_Sel=1
Time=310ns | PC=0x0000002c | ALU_Result=0x00000000 | APB_Sel=0 | RAM_Sel=1
Time=330ns | PC=0x00000030 | ALU_Result=0x00000000 | APB_Sel=0 | RAM_Sel=1
Time=350ns | PC=0x00000034 | ALU_Result=0x00000000 | APB_Sel=0 | RAM_Sel=1
Time=370ns | PC=0x00000038 | ALU_Result=0x00000000 | APB_Sel=0 | RAM_Sel=1
Time=390ns | PC=0x0000003c | ALU_Result=0x00000000 | APB_Sel=0 | RAM_Sel=1
Time=410ns | PC=0x00000040 | ALU_Result=0x00000000 | APB_Sel=0 | RAM_Sel=1
Time=430ns | PC=0x00000044 | ALU_Result=0x00000000 | APB_Sel=0 | RAM_Sel=1
[SUCCESS] CPU Pipelining verified active. Current PC: 0x00000044
[TEST STAGE 2] Verifying Peripheral Memory Address Decoding...
[NOTE] No active peripheral transaction intercepted during this cycle window.
[TEST STAGE 3] Testing UART Serial Interface...
[UART RX] Injecting byte: 0xa5
Time=450ns | PC=0x00000048 | ALU_Result=0x00000000 | APB_Sel=0 | RAM_Sel=1
Time=470ns | PC=0x0000004c | ALU_Result=0x00000000 | APB_Sel=0 | RAM_Sel=1
Time=490ns | PC=0x00000050 | ALU_Result=0x00000000 | APB_Sel=0 | RAM_Sel=1
Time=510ns | PC=0x00000054 | ALU_Result=0x00000000 | APB_Sel=0 | RAM_Sel=1
Time=530ns | PC=0x00000058 | ALU_Result=0x00000000 | APB_Sel=0 | RAM_Sel=1
Time=550ns | PC=0x0000005c | ALU_Result=0x00000000 | APB_Sel=0 | RAM_Sel=1
Time=570ns | PC=0x00000060 | ALU_Result=0x00000000 | APB_Sel=0 | RAM_Sel=1
Time=590ns | PC=0x00000064 | ALU_Result=0x00000000 | APB_Sel=0 | RAM_Sel=1
Time=610ns | PC=0x00000068 | ALU_Result=0x00000000 | APB_Sel=0 | RAM_Sel=1
Time=630ns | PC=0x0000006c | ALU_Result=0x00000000 | APB_Sel=0 | RAM_Sel=1
Time=650ns | PC=0x00000070 | ALU_Result=0x00000000 | APB_Sel=0 | RAM_Sel=1
Time=670ns | PC=0x00000074 | ALU_Result=0x00000000 | APB_Sel=0 | RAM_Sel=1
Time=690ns | PC=0x00000078 | ALU_Result=0x00000000 | APB_Sel=0 | RAM_Sel=1
Time=710ns | PC=0x0000007c | ALU_Result=0x00000000 | APB_Sel=0 | RAM_Sel=1
Time=730ns | PC=0x00000080 | ALU_Result=0x00000000 | APB_Sel=0 | RAM_Sel=1
Time=750ns | PC=0x00000084 | ALU_Result=0x00000000 | APB_Sel=0 | RAM_Sel=1
Time=770ns | PC=0x00000088 | ALU_Result=0x00000000 | APB_Sel=0 | RAM_Sel=1
Time=790ns | PC=0x0000008c | ALU_Result=0x00000000 | APB_Sel=0 | RAM_Sel=1
Time=810ns | PC=0x00000090 | ALU_Result=0x00000000 | APB_Sel=0 | RAM_Sel=1
Time=830ns | PC=0x00000094 | ALU_Result=0x00000000 | APB_Sel=0 | RAM_Sel=1
Time=850ns | PC=0x00000098 | ALU_Result=0x00000000 | APB_Sel=0 | RAM_Sel=1
Time=870ns | PC=0x0000009c | ALU_Result=0x00000000 | APB_Sel=0 | RAM_Sel=1
Time=890ns | PC=0x000000a0 | ALU_Result=0x00000000 | APB_Sel=0 | RAM_Sel=1
Time=910ns | PC=0x000000a4 | ALU_Result=0x00000000 | APB_Sel=0 | RAM_Sel=1
Time=930ns | PC=0x000000a8 | ALU_Result=0x00000000 | APB_Sel=0 | RAM_Sel=1
Time=950ns | PC=0x000000ac | ALU_Result=0x00000000 | APB_Sel=0 | RAM_Sel=1
Time=970ns | PC=0x000000b0 | ALU_Result=0x00000000 | APB_Sel=0 | RAM_Sel=1
Time=990ns | PC=0x000000b4 | ALU_Result=0x00000000 | APB_Sel=0 | RAM_Sel=1
Time=1010ns | PC=0x000000b8 | ALU_Result=0x00000000 | APB_Sel=0 | RAM_Sel=1
Time=1030ns | PC=0x000000bc | ALU_Result=0x00000000 | APB_Sel=0 | RAM_Sel=1
Time=1050ns | PC=0x000000c0 | ALU_Result=0x00000000 | APB_Sel=0 | RAM_Sel=1
Time=1070ns | PC=0x000000c4 | ALU_Result=0x00000000 | APB_Sel=0 | RAM_Sel=1
Time=1090ns | PC=0x000000c8 | ALU_Result=0x00000000 | APB_Sel=0 | RAM_Sel=1
Time=1110ns | PC=0x000000cc | ALU_Result=0x00000000 | APB_Sel=0 | RAM_Sel=1
Time=1130ns | PC=0x000000d0 | ALU_Result=0x00000000 | APB_Sel=0 | RAM_Sel=1
Time=1150ns | PC=0x000000d4 | ALU_Result=0x00000000 | APB_Sel=0 | RAM_Sel=1
Time=1170ns | PC=0x000000d8 | ALU_Result=0x00000000 | APB_Sel=0 | RAM_Sel=1
Time=1190ns | PC=0x000000dc | ALU_Result=0x00000000 | APB_Sel=0 | RAM_Sel=1
Time=1210ns | PC=0x000000e0 | ALU_Result=0x00000000 | APB_Sel=0 | RAM_Sel=1
Time=1230ns | PC=0x000000e4 | ALU_Result=0x00000000 | APB_Sel=0 | RAM_Sel=1
Time=1250ns | PC=0x000000e8 | ALU_Result=0x00000000 | APB_Sel=0 | RAM_Sel=1
Time=1270ns | PC=0x000000ec | ALU_Result=0x00000000 | APB_Sel=0 | RAM_Sel=1
Time=1290ns | PC=0x000000f0 | ALU_Result=0x00000000 | APB_Sel=0 | RAM_Sel=1
Time=1310ns | PC=0x000000f4 | ALU_Result=0x00000000 | APB_Sel=0 | RAM_Sel=1
Time=1330ns | PC=0x000000f8 | ALU_Result=0x00000000 | APB_Sel=0 | RAM_Sel=1
Time=1350ns | PC=0x000000fc | ALU_Result=0x00000000 | APB_Sel=0 | RAM_Sel=1
Time=1370ns | PC=0x00000100 | ALU_Result=0x00000000 | APB_Sel=0 | RAM_Sel=1
Time=1390ns | PC=0x00000104 | ALU_Result=0x00000000 | APB_Sel=0 | RAM_Sel=1
Time=1410ns | PC=0x00000108 | ALU_Result=0x00000000 | APB_Sel=0 | RAM_Sel=1
Time=1430ns | PC=0x0000010c | ALU_Result=0x00000000 | APB_Sel=0 | RAM_Sel=1
Time=1450ns | PC=0x00000110 | ALU_Result=0x00000000 | APB_Sel=0 | RAM_Sel=1
Time=1470ns | PC=0x00000114 | ALU_Result=0x00000000 | APB_Sel=0 | RAM_Sel=1
Time=1490ns | PC=0x00000118 | ALU_Result=0x00000000 | APB_Sel=0 | RAM_Sel=1
Time=1510ns | PC=0x0000011c | ALU_Result=0x00000000 | APB_Sel=0 | RAM_Sel=1
Time=1530ns | PC=0x00000120 | ALU_Result=0x00000000 | APB_Sel=0 | RAM_Sel=1
Time=1550ns | PC=0x00000124 | ALU_Result=0x00000000 | APB_Sel=0 | RAM_Sel=1
Time=1570ns | PC=0x00000128 | ALU_Result=0x00000000 | APB_Sel=0 | RAM_Sel=1
Time=1590ns | PC=0x0000012c | ALU_Result=0x00000000 | APB_Sel=0 | RAM_Sel=1
Time=1610ns | PC=0x00000130 | ALU_Result=0x00000000 | APB_Sel=0 | RAM_Sel=1
Time=1630ns | PC=0x00000134 | ALU_Result=0x00000000 | APB_Sel=0 | RAM_Sel=1
Time=1650ns | PC=0x00000138 | ALU_Result=0x00000000 | APB_Sel=0 | RAM_Sel=1
Time=1670ns | PC=0x0000013c | ALU_Result=0x00000000 | APB_Sel=0 | RAM_Sel=1
Time=1690ns | PC=0x00000140 | ALU_Result=0x00000000 | APB_Sel=0 | RAM_Sel=1
Time=1710ns | PC=0x00000144 | ALU_Result=0x00000000 | APB_Sel=0 | RAM_Sel=1
Time=1730ns | PC=0x00000148 | ALU_Result=0x00000000 | APB_Sel=0 | RAM_Sel=1
Time=1750ns | PC=0x0000014c | ALU_Result=0x00000000 | APB_Sel=0 | RAM_Sel=1
Time=1770ns | PC=0x00000150 | ALU_Result=0x00000000 | APB_Sel=0 | RAM_Sel=1
Time=1790ns | PC=0x00000154 | ALU_Result=0x00000000 | APB_Sel=0 | RAM_Sel=1
Time=1810ns | PC=0x00000158 | ALU_Result=0x00000000 | APB_Sel=0 | RAM_Sel=1
Time=1830ns | PC=0x0000015c | ALU_Result=0x00000000 | APB_Sel=0 | RAM_Sel=1
Time=1850ns | PC=0x00000160 | ALU_Result=0x00000000 | APB_Sel=0 | RAM_Sel=1
Time=1870ns | PC=0x00000164 | ALU_Result=0x00000000 | APB_Sel=0 | RAM_Sel=1
Time=1890ns | PC=0x00000168 | ALU_Result=0x00000000 | APB_Sel=0 | RAM_Sel=1
Time=1910ns | PC=0x0000016c | ALU_Result=0x00000000 | APB_Sel=0 | RAM_Sel=1
Time=1930ns | PC=0x00000170 | ALU_Result=0x00000000 | APB_Sel=0 | RAM_Sel=1
Time=1950ns | PC=0x00000174 | ALU_Result=0x00000000 | APB_Sel=0 | RAM_Sel=1
Time=1970ns | PC=0x00000178 | ALU_Result=0x00000000 | APB_Sel=0 | RAM_Sel=1
Time=1990ns | PC=0x0000017c | ALU_Result=0x00000000 | APB_Sel=0 | RAM_Sel=1
Time=2010ns | PC=0x00000180 | ALU_Result=0x00000000 | APB_Sel=0 | RAM_Sel=1
Time=2030ns | PC=0x00000184 | ALU_Result=0x00000000 | APB_Sel=0 | RAM_Sel=1
Time=2050ns | PC=0x00000188 | ALU_Result=0x00000000 | APB_Sel=0 | RAM_Sel=1
Time=2070ns | PC=0x0000018c | ALU_Result=0x00000000 | APB_Sel=0 | RAM_Sel=1
Time=2090ns | PC=0x00000190 | ALU_Result=0x00000000 | APB_Sel=0 | RAM_Sel=1
Time=2110ns | PC=0x00000194 | ALU_Result=0x00000000 | APB_Sel=0 | RAM_Sel=1
Time=2130ns | PC=0x00000198 | ALU_Result=0x00000000 | APB_Sel=0 | RAM_Sel=1
Time=2150ns | PC=0x0000019c | ALU_Result=0x00000000 | APB_Sel=0 | RAM_Sel=1
Time=2170ns | PC=0x000001a0 | ALU_Result=0x00000000 | APB_Sel=0 | RAM_Sel=1
Time=2190ns | PC=0x000001a4 | ALU_Result=0x00000000 | APB_Sel=0 | RAM_Sel=1
Time=2210ns | PC=0x000001a8 | ALU_Result=0x00000000 | APB_Sel=0 | RAM_Sel=1
Time=2230ns | PC=0x000001ac | ALU_Result=0x00000000 | APB_Sel=0 | RAM_Sel=1
Time=2250ns | PC=0x000001b0 | ALU_Result=0x00000000 | APB_Sel=0 | RAM_Sel=1
Time=2270ns | PC=0x000001b4 | ALU_Result=0x00000000 | APB_Sel=0 | RAM_Sel=1
Time=2290ns | PC=0x000001b8 | ALU_Result=0x00000000 | APB_Sel=0 | RAM_Sel=1
Time=2310ns | PC=0x000001bc | ALU_Result=0x00000000 | APB_Sel=0 | RAM_Sel=1
Time=2330ns | PC=0x000001c0 | ALU_Result=0x00000000 | APB_Sel=0 | RAM_Sel=1
Time=2350ns | PC=0x000001c4 | ALU_Result=0x00000000 | APB_Sel=0 | RAM_Sel=1
Time=2370ns | PC=0x000001c8 | ALU_Result=0x00000000 | APB_Sel=0 | RAM_Sel=1
Time=2390ns | PC=0x000001cc | ALU_Result=0x00000000 | APB_Sel=0 | RAM_Sel=1
Time=2410ns | PC=0x000001d0 | ALU_Result=0x00000000 | APB_Sel=0 | RAM_Sel=1
Time=2430ns | PC=0x000001d4 | ALU_Result=0x00000000 | APB_Sel=0 | RAM_Sel=1
[UART RX] Byte injection completed.
Time=2450ns | PC=0x000001d8 | ALU_Result=0x00000000 | APB_Sel=0 | RAM_Sel=1
Time=2470ns | PC=0x000001dc | ALU_Result=0x00000000 | APB_Sel=0 | RAM_Sel=1
Time=2490ns | PC=0x000001e0 | ALU_Result=0x00000000 | APB_Sel=0 | RAM_Sel=1
Time=2510ns | PC=0x000001e4 | ALU_Result=0x00000000 | APB_Sel=0 | RAM_Sel=1
Time=2530ns | PC=0x000001e8 | ALU_Result=0x00000000 | APB_Sel=0 | RAM_Sel=1
Time=2550ns | PC=0x000001ec | ALU_Result=0x00000000 | APB_Sel=0 | RAM_Sel=1
Time=2570ns | PC=0x000001f0 | ALU_Result=0x00000000 | APB_Sel=0 | RAM_Sel=1
Time=2590ns | PC=0x000001f4 | ALU_Result=0x00000000 | APB_Sel=0 | RAM_Sel=1
Time=2610ns | PC=0x000001f8 | ALU_Result=0x00000000 | APB_Sel=0 | RAM_Sel=1
Time=2630ns | PC=0x000001fc | ALU_Result=0x00000000 | APB_Sel=0 | RAM_Sel=1
Time=2650ns | PC=0x00000200 | ALU_Result=0x00000000 | APB_Sel=0 | RAM_Sel=1
Time=2670ns | PC=0x00000204 | ALU_Result=0x00000000 | APB_Sel=0 | RAM_Sel=1
Time=2690ns | PC=0x00000208 | ALU_Result=0x00000000 | APB_Sel=0 | RAM_Sel=1
Time=2710ns | PC=0x0000020c | ALU_Result=0x00000000 | APB_Sel=0 | RAM_Sel=1
Time=2730ns | PC=0x00000210 | ALU_Result=0x00000000 | APB_Sel=0 | RAM_Sel=1
Time=2750ns | PC=0x00000214 | ALU_Result=0x00000000 | APB_Sel=0 | RAM_Sel=1
Time=2770ns | PC=0x00000218 | ALU_Result=0x00000000 | APB_Sel=0 | RAM_Sel=1
Time=2790ns | PC=0x0000021c | ALU_Result=0x00000000 | APB_Sel=0 | RAM_Sel=1
Time=2810ns | PC=0x00000220 | ALU_Result=0x00000000 | APB_Sel=0 | RAM_Sel=1
Time=2830ns | PC=0x00000224 | ALU_Result=0x00000000 | APB_Sel=0 | RAM_Sel=1
Time=2850ns | PC=0x00000228 | ALU_Result=0x00000000 | APB_Sel=0 | RAM_Sel=1
Time=2870ns | PC=0x0000022c | ALU_Result=0x00000000 | APB_Sel=0 | RAM_Sel=1
Time=2890ns | PC=0x00000230 | ALU_Result=0x00000000 | APB_Sel=0 | RAM_Sel=1
Time=2910ns | PC=0x00000234 | ALU_Result=0x00000000 | APB_Sel=0 | RAM_Sel=1
Time=2930ns | PC=0x00000238 | ALU_Result=0x00000000 | APB_Sel=0 | RAM_Sel=1
Time=2950ns | PC=0x0000023c | ALU_Result=0x00000000 | APB_Sel=0 | RAM_Sel=1
Time=2970ns | PC=0x00000240 | ALU_Result=0x00000000 | APB_Sel=0 | RAM_Sel=1
Time=2990ns | PC=0x00000244 | ALU_Result=0x00000000 | APB_Sel=0 | RAM_Sel=1
Time=3010ns | PC=0x00000248 | ALU_Result=0x00000000 | APB_Sel=0 | RAM_Sel=1
Time=3030ns | PC=0x0000024c | ALU_Result=0x00000000 | APB_Sel=0 | RAM_Sel=1
Time=3050ns | PC=0x00000250 | ALU_Result=0x00000000 | APB_Sel=0 | RAM_Sel=1
Time=3070ns | PC=0x00000254 | ALU_Result=0x00000000 | APB_Sel=0 | RAM_Sel=1
Time=3090ns | PC=0x00000258 | ALU_Result=0x00000000 | APB_Sel=0 | RAM_Sel=1
Time=3110ns | PC=0x0000025c | ALU_Result=0x00000000 | APB_Sel=0 | RAM_Sel=1
Time=3130ns | PC=0x00000260 | ALU_Result=0x00000000 | APB_Sel=0 | RAM_Sel=1
Time=3150ns | PC=0x00000264 | ALU_Result=0x00000000 | APB_Sel=0 | RAM_Sel=1
Time=3170ns | PC=0x00000268 | ALU_Result=0x00000000 | APB_Sel=0 | RAM_Sel=1
Time=3190ns | PC=0x0000026c | ALU_Result=0x00000000 | APB_Sel=0 | RAM_Sel=1
Time=3210ns | PC=0x00000270 | ALU_Result=0x00000000 | APB_Sel=0 | RAM_Sel=1
Time=3230ns | PC=0x00000274 | ALU_Result=0x00000000 | APB_Sel=0 | RAM_Sel=1
Time=3250ns | PC=0x00000278 | ALU_Result=0x00000000 | APB_Sel=0 | RAM_Sel=1
Time=3270ns | PC=0x0000027c | ALU_Result=0x00000000 | APB_Sel=0 | RAM_Sel=1
Time=3290ns | PC=0x00000280 | ALU_Result=0x00000000 | APB_Sel=0 | RAM_Sel=1
Time=3310ns | PC=0x00000284 | ALU_Result=0x00000000 | APB_Sel=0 | RAM_Sel=1
Time=3330ns | PC=0x00000288 | ALU_Result=0x00000000 | APB_Sel=0 | RAM_Sel=1
Time=3350ns | PC=0x0000028c | ALU_Result=0x00000000 | APB_Sel=0 | RAM_Sel=1
Time=3370ns | PC=0x00000290 | ALU_Result=0x00000000 | APB_Sel=0 | RAM_Sel=1
Time=3390ns | PC=0x00000294 | ALU_Result=0x00000000 | APB_Sel=0 | RAM_Sel=1
Time=3410ns | PC=0x00000298 | ALU_Result=0x00000000 | APB_Sel=0 | RAM_Sel=1
Time=3430ns | PC=0x0000029c | ALU_Result=0x00000000 | APB_Sel=0 | RAM_Sel=1
[TEST STAGE 4] Driving External Pins to Test Input Capture Mode...
Time=3450ns | PC=0x000002a0 | ALU_Result=0x00000000 | APB_Sel=0 | RAM_Sel=1
Time=3470ns | PC=0x000002a4 | ALU_Result=0x00000000 | APB_Sel=0 | RAM_Sel=1
Time=3490ns | PC=0x000002a8 | ALU_Result=0x00000000 | APB_Sel=0 | RAM_Sel=1
Time=3510ns | PC=0x000002ac | ALU_Result=0x00000000 | APB_Sel=0 | RAM_Sel=1
Time=3530ns | PC=0x000002b0 | ALU_Result=0x00000000 | APB_Sel=0 | RAM_Sel=1
Time=3550ns | PC=0x000002b4 | ALU_Result=0x00000000 | APB_Sel=0 | RAM_Sel=1
Time=3570ns | PC=0x000002b8 | ALU_Result=0x00000000 | APB_Sel=0 | RAM_Sel=1
Time=3590ns | PC=0x000002bc | ALU_Result=0x00000000 | APB_Sel=0 | RAM_Sel=1
Time=3610ns | PC=0x000002c0 | ALU_Result=0x00000000 | APB_Sel=0 | RAM_Sel=1
Time=3630ns | PC=0x000002c4 | ALU_Result=0x00000000 | APB_Sel=0 | RAM_Sel=1
Time=3650ns | PC=0x000002c8 | ALU_Result=0x00000000 | APB_Sel=0 | RAM_Sel=1
Time=3670ns | PC=0x000002cc | ALU_Result=0x00000000 | APB_Sel=0 | RAM_Sel=1
Time=3690ns | PC=0x000002d0 | ALU_Result=0x00000000 | APB_Sel=0 | RAM_Sel=1
Time=3710ns | PC=0x000002d4 | ALU_Result=0x00000000 | APB_Sel=0 | RAM_Sel=1
Time=3730ns | PC=0x000002d8 | ALU_Result=0x00000000 | APB_Sel=0 | RAM_Sel=1
Time=3750ns | PC=0x000002dc | ALU_Result=0x00000000 | APB_Sel=0 | RAM_Sel=1
Time=3770ns | PC=0x000002e0 | ALU_Result=0x00000000 | APB_Sel=0 | RAM_Sel=1
Time=3790ns | PC=0x000002e4 | ALU_Result=0x00000000 | APB_Sel=0 | RAM_Sel=1
Time=3810ns | PC=0x000002e8 | ALU_Result=0x00000000 | APB_Sel=0 | RAM_Sel=1
Time=3830ns | PC=0x000002ec | ALU_Result=0x00000000 | APB_Sel=0 | RAM_Sel=1
Time=3850ns | PC=0x000002f0 | ALU_Result=0x00000000 | APB_Sel=0 | RAM_Sel=1
Time=3870ns | PC=0x000002f4 | ALU_Result=0x00000000 | APB_Sel=0 | RAM_Sel=1
Time=3890ns | PC=0x000002f8 | ALU_Result=0x00000000 | APB_Sel=0 | RAM_Sel=1
Time=3910ns | PC=0x000002fc | ALU_Result=0x00000000 | APB_Sel=0 | RAM_Sel=1
Time=3930ns | PC=0x00000300 | ALU_Result=0x00000000 | APB_Sel=0 | RAM_Sel=1
Time=3950ns | PC=0x00000304 | ALU_Result=0x00000000 | APB_Sel=0 | RAM_Sel=1
Time=3970ns | PC=0x00000308 | ALU_Result=0x00000000 | APB_Sel=0 | RAM_Sel=1
Time=3990ns | PC=0x0000030c | ALU_Result=0x00000000 | APB_Sel=0 | RAM_Sel=1
Time=4010ns | PC=0x00000310 | ALU_Result=0x00000000 | APB_Sel=0 | RAM_Sel=1
Time=4030ns | PC=0x00000314 | ALU_Result=0x00000000 | APB_Sel=0 | RAM_Sel=1
Time=4050ns | PC=0x00000318 | ALU_Result=0x00000000 | APB_Sel=0 | RAM_Sel=1
Time=4070ns | PC=0x0000031c | ALU_Result=0x00000000 | APB_Sel=0 | RAM_Sel=1
Time=4090ns | PC=0x00000320 | ALU_Result=0x00000000 | APB_Sel=0 | RAM_Sel=1
Time=4110ns | PC=0x00000324 | ALU_Result=0x00000000 | APB_Sel=0 | RAM_Sel=1
Time=4130ns | PC=0x00000328 | ALU_Result=0x00000000 | APB_Sel=0 | RAM_Sel=1
Time=4150ns | PC=0x0000032c | ALU_Result=0x00000000 | APB_Sel=0 | RAM_Sel=1
Time=4170ns | PC=0x00000330 | ALU_Result=0x00000000 | APB_Sel=0 | RAM_Sel=1
Time=4190ns | PC=0x00000334 | ALU_Result=0x00000000 | APB_Sel=0 | RAM_Sel=1
Time=4210ns | PC=0x00000338 | ALU_Result=0x00000000 | APB_Sel=0 | RAM_Sel=1
Time=4230ns | PC=0x0000033c | ALU_Result=0x00000000 | APB_Sel=0 | RAM_Sel=1
Time=4250ns | PC=0x00000340 | ALU_Result=0x00000000 | APB_Sel=0 | RAM_Sel=1
Time=4270ns | PC=0x00000344 | ALU_Result=0x00000000 | APB_Sel=0 | RAM_Sel=1
Time=4290ns | PC=0x00000348 | ALU_Result=0x00000000 | APB_Sel=0 | RAM_Sel=1
Time=4310ns | PC=0x0000034c | ALU_Result=0x00000000 | APB_Sel=0 | RAM_Sel=1
Time=4330ns | PC=0x00000350 | ALU_Result=0x00000000 | APB_Sel=0 | RAM_Sel=1
Time=4350ns | PC=0x00000354 | ALU_Result=0x00000000 | APB_Sel=0 | RAM_Sel=1
Time=4370ns | PC=0x00000358 | ALU_Result=0x00000000 | APB_Sel=0 | RAM_Sel=1
Time=4390ns | PC=0x0000035c | ALU_Result=0x00000000 | APB_Sel=0 | RAM_Sel=1
Time=4410ns | PC=0x00000360 | ALU_Result=0x00000000 | APB_Sel=0 | RAM_Sel=1
Time=4430ns | PC=0x00000364 | ALU_Result=0x00000000 | APB_Sel=0 | RAM_Sel=1
Time=4450ns | PC=0x00000368 | ALU_Result=0x00000000 | APB_Sel=0 | RAM_Sel=1
Time=4470ns | PC=0x0000036c | ALU_Result=0x00000000 | APB_Sel=0 | RAM_Sel=1
Time=4490ns | PC=0x00000370 | ALU_Result=0x00000000 | APB_Sel=0 | RAM_Sel=1
Time=4510ns | PC=0x00000374 | ALU_Result=0x00000000 | APB_Sel=0 | RAM_Sel=1
Time=4530ns | PC=0x00000378 | ALU_Result=0x00000000 | APB_Sel=0 | RAM_Sel=1
Time=4550ns | PC=0x0000037c | ALU_Result=0x00000000 | APB_Sel=0 | RAM_Sel=1
Time=4570ns | PC=0x00000380 | ALU_Result=0x00000000 | APB_Sel=0 | RAM_Sel=1
Time=4590ns | PC=0x00000384 | ALU_Result=0x00000000 | APB_Sel=0 | RAM_Sel=1
Time=4610ns | PC=0x00000388 | ALU_Result=0x00000000 | APB_Sel=0 | RAM_Sel=1
Time=4630ns | PC=0x0000038c | ALU_Result=0x00000000 | APB_Sel=0 | RAM_Sel=1
Time=4650ns | PC=0x00000390 | ALU_Result=0x00000000 | APB_Sel=0 | RAM_Sel=1
Time=4670ns | PC=0x00000394 | ALU_Result=0x00000000 | APB_Sel=0 | RAM_Sel=1
Time=4690ns | PC=0x00000398 | ALU_Result=0x00000000 | APB_Sel=0 | RAM_Sel=1
Time=4710ns | PC=0x0000039c | ALU_Result=0x00000000 | APB_Sel=0 | RAM_Sel=1
Time=4730ns | PC=0x000003a0 | ALU_Result=0x00000000 | APB_Sel=0 | RAM_Sel=1
Time=4750ns | PC=0x000003a4 | ALU_Result=0x00000000 | APB_Sel=0 | RAM_Sel=1
Time=4770ns | PC=0x000003a8 | ALU_Result=0x00000000 | APB_Sel=0 | RAM_Sel=1
Time=4790ns | PC=0x000003ac | ALU_Result=0x00000000 | APB_Sel=0 | RAM_Sel=1
Time=4810ns | PC=0x000003b0 | ALU_Result=0x00000000 | APB_Sel=0 | RAM_Sel=1
Time=4830ns | PC=0x000003b4 | ALU_Result=0x00000000 | APB_Sel=0 | RAM_Sel=1
Time=4850ns | PC=0x000003b8 | ALU_Result=0x00000000 | APB_Sel=0 | RAM_Sel=1
Time=4870ns | PC=0x000003bc | ALU_Result=0x00000000 | APB_Sel=0 | RAM_Sel=1
Time=4890ns | PC=0x000003c0 | ALU_Result=0x00000000 | APB_Sel=0 | RAM_Sel=1
Time=4910ns | PC=0x000003c4 | ALU_Result=0x00000000 | APB_Sel=0 | RAM_Sel=1
Time=4930ns | PC=0x000003c8 | ALU_Result=0x00000000 | APB_Sel=0 | RAM_Sel=1
Time=4950ns | PC=0x000003cc | ALU_Result=0x00000000 | APB_Sel=0 | RAM_Sel=1
Time=4970ns | PC=0x000003d0 | ALU_Result=0x00000000 | APB_Sel=0 | RAM_Sel=1
Time=4990ns | PC=0x000003d4 | ALU_Result=0x00000000 | APB_Sel=0 | RAM_Sel=1
Time=5010ns | PC=0x000003d8 | ALU_Result=0x00000000 | APB_Sel=0 | RAM_Sel=1
Time=5030ns | PC=0x000003dc | ALU_Result=0x00000000 | APB_Sel=0 | RAM_Sel=1
Time=5050ns | PC=0x000003e0 | ALU_Result=0x00000000 | APB_Sel=0 | RAM_Sel=1
Time=5070ns | PC=0x000003e4 | ALU_Result=0x00000000 | APB_Sel=0 | RAM_Sel=1
Time=5090ns | PC=0x000003e8 | ALU_Result=0x00000000 | APB_Sel=0 | RAM_Sel=1
Time=5110ns | PC=0x000003ec | ALU_Result=0x00000000 | APB_Sel=0 | RAM_Sel=1
Time=5130ns | PC=0x000003f0 | ALU_Result=0x00000000 | APB_Sel=0 | RAM_Sel=1
Time=5150ns | PC=0x000003f4 | ALU_Result=0x00000000 | APB_Sel=0 | RAM_Sel=1
Time=5170ns | PC=0x000003f8 | ALU_Result=0x00000000 | APB_Sel=0 | RAM_Sel=1
Time=5190ns | PC=0x000003fc | ALU_Result=0x00000000 | APB_Sel=0 | RAM_Sel=1
Time=5210ns | PC=0x00000400 | ALU_Result=0x00000000 | APB_Sel=0 | RAM_Sel=1
Time=5230ns | PC=0x00000404 | ALU_Result=0x00000000 | APB_Sel=0 | RAM_Sel=1
Time=5250ns | PC=0x00000408 | ALU_Result=0x00000000 | APB_Sel=0 | RAM_Sel=1
Time=5270ns | PC=0x0000040c | ALU_Result=0x00003005 | APB_Sel=0 | RAM_Sel=1
Time=5290ns | PC=0x00000410 | ALU_Result=0x000000ff | APB_Sel=1 | RAM_Sel=0
Time=5310ns | PC=0x00000414 | ALU_Result=0x00003000 | APB_Sel=0 | RAM_Sel=1
Time=5330ns | PC=0x00000418 | ALU_Result=0x00003000 | APB_Sel=1 | RAM_Sel=0
Time=5350ns | PC=0x0000041c | ALU_Result=0x00000000 | APB_Sel=1 | RAM_Sel=0
Time=5370ns | PC=0x00000420 | ALU_Result=0x00000000 | APB_Sel=0 | RAM_Sel=1
Time=5390ns | PC=0x00000424 | ALU_Result=0x00000000 | APB_Sel=0 | RAM_Sel=1
Time=5410ns | PC=0x00000428 | ALU_Result=0x00000000 | APB_Sel=0 | RAM_Sel=1
Time=5430ns | PC=0x0000042c | ALU_Result=0x00000000 | APB_Sel=0 | RAM_Sel=1
Time=5450ns | PC=0x00000430 | ALU_Result=0x00000000 | APB_Sel=0 | RAM_Sel=1
Time=5470ns | PC=0x00000434 | ALU_Result=0x00000000 | APB_Sel=0 | RAM_Sel=1
Time=5490ns | PC=0x00000438 | ALU_Result=0x00000000 | APB_Sel=0 | RAM_Sel=1
Time=5510ns | PC=0x0000043c | ALU_Result=0x00000000 | APB_Sel=0 | RAM_Sel=1
Time=5530ns | PC=0x00000440 | ALU_Result=0x00000000 | APB_Sel=0 | RAM_Sel=1
Time=5550ns | PC=0x00000444 | ALU_Result=0x00000000 | APB_Sel=0 | RAM_Sel=1
Time=5570ns | PC=0x00000448 | ALU_Result=0x00000000 | APB_Sel=0 | RAM_Sel=1
Time=5590ns | PC=0x0000044c | ALU_Result=0x00000000 | APB_Sel=0 | RAM_Sel=1
Time=5610ns | PC=0x00000450 | ALU_Result=0x00000000 | APB_Sel=0 | RAM_Sel=1
Time=5630ns | PC=0x00000454 | ALU_Result=0x00000000 | APB_Sel=0 | RAM_Sel=1
[VERIFICATION COMPLETE] All primary structural execution pathways checked successfully.
tb/tb_soc_final.v:152: $finish called at 5650000 (1ps)
Time=5650ns | PC=0x00000458 | ALU_Result=0x00000000 | APB_Sel=0 | RAM_Sel=1
